
TF0EE0 000:309 SEGGER J-Link V4.98e Log File (0001ms, 0269ms total)
TF0EE0 000:309 DLL Compiled: May  5 2015 11:00:52 (0001ms, 0269ms total)
TF0EE0 000:309 Logging started @ 2018-11-11 15:57 (0001ms, 0269ms total)
TF0EE0 000:310 JLINK_SetWarnOutHandler(...) (0000ms, 0269ms total)
TF0EE0 000:310 JLINK_OpenEx(...)
Firmware: J-Link ARM-OB STM32 compiled Aug 22 2012 19:52:04
Hardware: V7.00
S/N: 20090928
Feature(s): RDI,FlashDL,FlashBP,JFlash,GDBFull  returns O.K. (0265ms, 0534ms total)
TF0EE0 000:576 JLINK_SetErrorOutHandler(...) (0000ms, 0534ms total)
TF0EE0 000:576 JLINK_ExecCommand("ProjectFile = "D:\Projects\SynchroLight_branches\ilia_slave\JLinkSettings.ini"", ...)  returns 0x00 (0001ms, 0535ms total)
TF0EE0 000:577 JLINK_ExecCommand("Device = STM32F103CB", ...)Device "STM32F103CB" selected.  returns 0x00 (0000ms, 0536ms total)
TF0EE0 000:578 JLINK_ExecCommand("DisableConnectionTimeout", ...)  returns 0x01 (0000ms, 0536ms total)
TF0EE0 000:578 JLINK_GetHardwareVersion()  returns 0x11170 (0000ms, 0536ms total)
TF0EE0 000:578 JLINK_GetDLLVersion()  returns 49805 (0000ms, 0536ms total)
TF0EE0 000:578 JLINK_GetFirmwareString(...) (0000ms, 0536ms total)
TF0EE0 000:579 JLINK_GetDLLVersion()  returns 49805 (0000ms, 0536ms total)
TF0EE0 000:579 JLINK_GetCompileDateTime() (0000ms, 0536ms total)
TF0EE0 000:579 JLINK_GetFirmwareString(...) (0000ms, 0536ms total)
TF0EE0 000:579 JLINK_GetHardwareVersion()  returns 0x11170 (0000ms, 0536ms total)
TF0EE0 000:580 JLINK_TIF_Select(JLINKARM_TIF_SWD)  returns 0x00 (0002ms, 0538ms total)
TF0EE0 000:582 JLINK_SetSpeed(5000) (0001ms, 0539ms total)
TF0EE0 000:583 JLINK_GetId() >0x108 TIF>Found SWD-DP with ID 0x1BA01477 >0x0D TIF> >0x28 TIF> >0x0D TIF> >0x28 TIF> >0x0D TIF> >0x21 TIF> >0x0D TIF> >0x28 TIF> >0x0D TIF> >0x28 TIF> >0x0D TIF> >0x28 TIF> >0x0D TIF> >0x21 TIF> >0x0D TIF> >0x21 TIF> >0x0D TIF> >0x28 TIF> >0x0D TIF> >0x21 TIF> >0x0D TIF> >0x21 TIF> >0x108 TIF>Found SWD-DP with ID 0x1BA01477 >0x0D TIF> >0x21 TIF> >0x0D TIF> >0x28 TIF> >0x0D TIF> >0x28 TIF> >0x0D TIF> >0x21 TIF> >0x0D TIF> >0x28 TIF> >0x0D TIF> >0x21 TIF> >0x0D TIF>
 >0x21 TIF> >0x0D TIF> >0x21 TIF> >0x0D TIF> >0x21 TIF> >0x0D TIF> >0x28 TIF> >0x0D TIF> >0x28 TIF> >0x0D TIF> >0x21 TIF> >0x0D TIF> >0x28 TIF> >0x0D TIF> >0x28 TIF> >0x0D TIF> >0x28 TIF> >0x0D TIF> >0x21 TIF> >0x0D TIF> >0x21 TIF> >0x0D TIF> >0x28 TIF> >0x0D TIF> >0x21 TIF> >0x0D TIF> >0x21 TIF>Found Cortex-M3 r1p1, Little endian. -- CPU_WriteMem(4 bytes @ 0xE0002000) -- CPU_ReadMem(4 bytes @ 0xE000EDF0) -- CPU_ReadMem(4 bytes @ 0xE0002000)FPUnit: 6 code (BP) slots and 2 literal slots
 -- CPU_ReadMem(4 bytes @ 0xE000EDFC) -- CPU_ReadMem(4 bytes @ 0xE0001000) -- CPU_WriteMem(4 bytes @ 0xE0001000) -- CPU_ReadMem(4 bytes @ 0xE000ED88) -- CPU_WriteMem(4 bytes @ 0xE000ED88) -- CPU_ReadMem(4 bytes @ 0xE000ED88) -- CPU_WriteMem(4 bytes @ 0xE000ED88)CoreSight components:ROMTbl 0 @ E00FF000 -- CPU_ReadMem(16 bytes @ 0xE00FF000) -- CPU_ReadMem(16 bytes @ 0xE000EFF0) -- CPU_ReadMem(16 bytes @ 0xE000EFE0)ROMTbl 0 [0]: FFF0F000, CID: B105E00D, PID: 001BB000 SCS
 -- CPU_ReadMem(16 bytes @ 0xE0001FF0) -- CPU_ReadMem(16 bytes @ 0xE0001FE0)ROMTbl 0 [1]: FFF02000, CID: B105E00D, PID: 001BB002 DWT -- CPU_ReadMem(16 bytes @ 0xE0002FF0) -- CPU_ReadMem(16 bytes @ 0xE0002FE0)ROMTbl 0 [2]: FFF03000, CID: B105E00D, PID: 000BB003 FPB -- CPU_ReadMem(16 bytes @ 0xE0000FF0) -- CPU_ReadMem(16 bytes @ 0xE0000FE0)ROMTbl 0 [3]: FFF01000, CID: B105E00D, PID: 001BB001 ITM -- CPU_ReadMem(16 bytes @ 0xE00FF010) -- CPU_ReadMem(16 bytes @ 0xE0040FF0)
 -- CPU_ReadMem(16 bytes @ 0xE0040FE0)ROMTbl 0 [4]: FFF41000, CID: B105900D, PID: 001BB923 TPIU-Lite >0x0D TIF> >0x21 TIF>  returns 0x1BA01477 (0080ms, 0619ms total)
TF0EE0 000:663 JLINK_GetDLLVersion()  returns 49805 (0000ms, 0619ms total)
TF0EE0 000:663 JLINK_CORE_GetFound()  returns 0x30000FF (0000ms, 0619ms total)
TF0EE0 000:663 JLINK_GetDebugInfo(0x100) -- Value=0xE00FF003  returns 0x00 (0000ms, 0619ms total)
TF0EE0 000:663 JLINK_ReadMem (0xE00FF000, 0x0020 Bytes, ...) -- CPU is running -- CPU_ReadMem(32 bytes @ 0xE00FF000) - Data: 03 F0 F0 FF 03 20 F0 FF 03 30 F0 FF 03 10 F0 FF ...  returns 0x00 (0002ms, 0621ms total)
TF0EE0 000:665 JLINK_ReadMem (0xE000EFF0, 0x0010 Bytes, ...) -- CPU is running -- CPU_ReadMem(16 bytes @ 0xE000EFF0) - Data: 0D 00 00 00 E0 00 00 00 05 00 00 00 B1 00 00 00  returns 0x00 (0001ms, 0622ms total)
TF0EE0 000:666 JLINK_ReadMem (0xE000EFD0, 0x0020 Bytes, ...) -- CPU is running -- CPU_ReadMem(32 bytes @ 0xE000EFD0) - Data: 04 00 00 00 00 00 00 00 00 00 00 00 00 00 00 00 ...  returns 0x00 (0002ms, 0624ms total)
TF0EE0 000:668 JLINK_ReadMem (0xE0001FF0, 0x0010 Bytes, ...) -- CPU is running -- CPU_ReadMem(16 bytes @ 0xE0001FF0) - Data: 0D 00 00 00 E0 00 00 00 05 00 00 00 B1 00 00 00  returns 0x00 (0001ms, 0625ms total)
TF0EE0 000:669 JLINK_ReadMem (0xE0001FD0, 0x0020 Bytes, ...) -- CPU is running -- CPU_ReadMem(32 bytes @ 0xE0001FD0) - Data: 04 00 00 00 00 00 00 00 00 00 00 00 00 00 00 00 ...  returns 0x00 (0001ms, 0626ms total)
TF0EE0 000:670 JLINK_ReadMem (0xE0002FF0, 0x0010 Bytes, ...) -- CPU is running -- CPU_ReadMem(16 bytes @ 0xE0002FF0) - Data: 0D 00 00 00 E0 00 00 00 05 00 00 00 B1 00 00 00  returns 0x00 (0001ms, 0627ms total)
TF0EE0 000:671 JLINK_ReadMem (0xE0002FD0, 0x0020 Bytes, ...) -- CPU is running -- CPU_ReadMem(32 bytes @ 0xE0002FD0) - Data: 04 00 00 00 00 00 00 00 00 00 00 00 00 00 00 00 ...  returns 0x00 (0002ms, 0629ms total)
TF0EE0 000:673 JLINK_ReadMem (0xE0000FF0, 0x0010 Bytes, ...) -- CPU is running -- CPU_ReadMem(16 bytes @ 0xE0000FF0) - Data: 0D 00 00 00 E0 00 00 00 05 00 00 00 B1 00 00 00  returns 0x00 (0001ms, 0630ms total)
TF0EE0 000:674 JLINK_ReadMem (0xE0000FD0, 0x0020 Bytes, ...) -- CPU is running -- CPU_ReadMem(32 bytes @ 0xE0000FD0) - Data: 04 00 00 00 00 00 00 00 00 00 00 00 00 00 00 00 ...  returns 0x00 (0001ms, 0631ms total)
TF0EE0 000:675 JLINK_ReadMem (0xE0040FF0, 0x0010 Bytes, ...) -- CPU is running -- CPU_ReadMem(16 bytes @ 0xE0040FF0) - Data: 0D 00 00 00 90 00 00 00 05 00 00 00 B1 00 00 00  returns 0x00 (0001ms, 0632ms total)
TF0EE0 000:676 JLINK_ReadMem (0xE0040FD0, 0x0020 Bytes, ...) -- CPU is running -- CPU_ReadMem(32 bytes @ 0xE0040FD0) - Data: 04 00 00 00 00 00 00 00 00 00 00 00 00 00 00 00 ...  returns 0x00 (0001ms, 0633ms total)
TF0EE0 000:677 JLINK_ReadMemU32(0xE000ED00, 0x0001 Items, ...) -- CPU is running -- CPU_ReadMem(4 bytes @ 0xE000ED00) - Data: 31 C2 1F 41  returns 0x01 (0001ms, 0634ms total)
TF0EE0 000:678 JLINK_SetResetType(JLINKARM_RESET_TYPE_NORMAL)  returns JLINKARM_RESET_TYPE_NORMAL (0000ms, 0634ms total)
TF0EE0 000:678 JLINK_Reset() -- CPU is running -- CPU_WriteMem(4 bytes @ 0xE000EDF0) -- CPU is running -- CPU_WriteMem(4 bytes @ 0xE000EDFC) >0x35 TIF> -- CPU is running -- CPU_WriteMem(4 bytes @ 0xE000ED0C) -- CPU is running -- CPU_ReadMem(4 bytes @ 0xE000EDF0) -- CPU is running -- CPU_ReadMem(4 bytes @ 0xE000EDF0) -- CPU is running -- CPU_WriteMem(4 bytes @ 0xE000EDF0) -- CPU is running -- CPU_WriteMem(4 bytes @ 0xE000EDFC) -- CPU is running -- CPU_ReadMem(4 bytes @ 0xE000EDF0)
 -- CPU_WriteMem(4 bytes @ 0xE0002000) -- CPU_ReadMem(4 bytes @ 0xE000EDFC) -- CPU_ReadMem(4 bytes @ 0xE0001000) (0024ms, 0658ms total)
TF0EE0 000:702 JLINK_ReadReg(R15 (PC))  returns 0x08000290 (0000ms, 0658ms total)
TF0EE0 000:702 JLINK_ReadReg(XPSR)  returns 0x01000000 (0000ms, 0658ms total)
TF0EE0 000:702 JLINK_Halt()  returns 0x00 (0000ms, 0658ms total)
TF0EE0 000:702 JLINK_IsHalted()  returns TRUE (0000ms, 0658ms total)
TF0EE0 000:702 JLINK_ReadMemU32(0xE000EDF0, 0x0001 Items, ...) -- CPU_ReadMem(4 bytes @ 0xE000EDF0) - Data: 03 00 03 00  returns 0x01 (0001ms, 0659ms total)
TF0EE0 000:703 JLINK_WriteU32(0xE000EDF0, 0xA05F0003) -- CPU_WriteMem(4 bytes @ 0xE000EDF0)  returns 0x00 (0001ms, 0660ms total)
TF0EE0 000:704 JLINK_WriteU32(0xE000EDFC, 0x01000000) -- CPU_WriteMem(4 bytes @ 0xE000EDFC)  returns 0x00 (0000ms, 0660ms total)
TF0EE0 000:706 JLINK_GetHWStatus(...)  returns 0x00 (0000ms, 0660ms total)
TF0EE0 000:707 JLINK_GetNumBPUnits(Type = 0xFFFFFF00)  returns 0x06 (0000ms, 0660ms total)
TF0EE0 000:707 JLINK_GetNumBPUnits(Type = 0xF0)  returns 0x2000 (0000ms, 0660ms total)
TF0EE0 000:707 JLINK_GetNumWPUnits()  returns 0x04 (0000ms, 0660ms total)
TF0EE0 000:708 JLINK_GetSpeed()  returns 0xFA0 (0000ms, 0660ms total)
TF0EE0 000:708 JLINK_ReadMemU32(0xE000E004, 0x0001 Items, ...) -- CPU_ReadMem(4 bytes @ 0xE000E004) - Data: 01 00 00 00  returns 0x01 (0001ms, 0661ms total)
TF0EE0 000:709 JLINK_ReadMemU32(0xE000E004, 0x0001 Items, ...) -- CPU_ReadMem(4 bytes @ 0xE000E004) - Data: 01 00 00 00  returns 0x01 (0001ms, 0662ms total)
TF0EE0 000:710 JLINK_WriteMem(0xE0001000, 0x001C Bytes, ...) - Data: 01 00 00 00 00 00 00 00 00 00 00 00 00 00 00 00 ... -- CPU_WriteMem(28 bytes @ 0xE0001000)  returns 0x1C (0003ms, 0665ms total)
TF0EE0 000:713 JLINK_ReadMem (0xE0001000, 0x001C Bytes, ...) -- CPU_ReadMem(28 bytes @ 0xE0001000) - Data: 01 00 00 40 00 00 00 00 00 00 00 00 00 00 00 00 ...  returns 0x00 (0001ms, 0666ms total)
TF0EE0 000:714 JLINK_ReadReg(R15 (PC))  returns 0x08000290 (0000ms, 0666ms total)
TF0EE0 000:714 JLINK_ReadReg(XPSR)  returns 0x01000000 (0000ms, 0666ms total)
TF0EE0 000:812 JLINK_SetResetType(JLINKARM_RESET_TYPE_NORMAL)  returns JLINKARM_RESET_TYPE_NORMAL (0000ms, 0666ms total)
TF0EE0 000:812 JLINK_Reset() -- CPU_WriteMem(4 bytes @ 0xE000EDF0) -- CPU_WriteMem(4 bytes @ 0xE000EDFC) >0x35 TIF> -- CPU_WriteMem(4 bytes @ 0xE000ED0C) -- CPU_ReadMem(4 bytes @ 0xE000EDF0) -- CPU_ReadMem(4 bytes @ 0xE000EDF0) -- CPU_WriteMem(4 bytes @ 0xE000EDF0) -- CPU_WriteMem(4 bytes @ 0xE000EDFC) -- CPU is running -- CPU_ReadMem(4 bytes @ 0xE000EDF0) -- CPU_WriteMem(4 bytes @ 0xE0002000) -- CPU_ReadMem(4 bytes @ 0xE000EDFC) -- CPU_ReadMem(4 bytes @ 0xE0001000) (0024ms, 0690ms total)
TF0EE0 000:836 JLINK_ReadReg(R15 (PC))  returns 0x08000290 (0000ms, 0690ms total)
TF0EE0 000:836 JLINK_ReadReg(XPSR)  returns 0x01000000 (0001ms, 0691ms total)
TF0EE0 000:838 JLINK_ReadMem (0x0800028E, 0x0002 Bytes, ...) -- CPU_ReadMem(64 bytes @ 0x08000280) -- Updating C cache (64 bytes @ 0x08000280) -- Read from C cache (2 bytes @ 0x0800028E) - Data: 70 47  returns 0x00 (0001ms, 0692ms total)
TF0EE0 000:839 JLINK_ReadMem (0x08000290, 0x003C Bytes, ...) -- CPU_ReadMem(64 bytes @ 0x080002C0) -- Updating C cache (64 bytes @ 0x080002C0) -- Read from C cache (60 bytes @ 0x08000290) - Data: 09 48 80 47 09 48 00 47 FE E7 FE E7 FE E7 FE E7 ...  returns 0x00 (0002ms, 0694ms total)
TF0EE0 002:717 JLINK_ReadMem (0x20001610, 0x0004 Bytes, ...) -- CPU_ReadMem(64 bytes @ 0x20001600) -- Updating C cache (64 bytes @ 0x20001600) -- Read from C cache (4 bytes @ 0x20001610) - Data: 70 0D 00 00  returns 0x00 (0002ms, 0696ms total)
TF0EE0 002:740 JLINK_ReadMem (0x20000078, 0x0002 Bytes, ...) -- CPU_ReadMem(64 bytes @ 0x20000040) -- Updating C cache (64 bytes @ 0x20000040) -- Read from C cache (2 bytes @ 0x20000078) - Data: 05 00  returns 0x00 (0002ms, 0698ms total)
TF0EE0 002:785 JLINK_ReadMem (0x20001530, 0x02D0 Bytes, ...) -- CPU_ReadMem(256 bytes @ 0x20001500) -- Updating C cache (256 bytes @ 0x20001500) -- CPU_ReadMem(448 bytes @ 0x20001640) -- Updating C cache (448 bytes @ 0x20001640) -- Read from C cache (720 bytes @ 0x20001530) - Data: 00 00 00 00 01 00 C8 00 2D 01 00 00 0A 01 00 FF ...  returns 0x00 (0009ms, 0707ms total)
TF0EE0 002:794 JLINK_ReadMem (0x20001800, 0x02C4 Bytes, ...) -- CPU_ReadMem(768 bytes @ 0x20001800) -- Updating C cache (768 bytes @ 0x20001800) -- Read from C cache (708 bytes @ 0x20001800) - Data: 00 00 00 00 00 00 00 00 00 00 00 00 00 00 00 00 ...  returns 0x00 (0009ms, 0716ms total)
T17114 002:830 JLINK_SetBPEx(Addr = 0x080042D8, Type = 0xFFFFFFF2)  returns 0x00000001 (0000ms, 0716ms total)
T17114 002:830 JLINK_Go() -- CPU_WriteMem(4 bytes @ 0xE0002000) -- CPU_ReadMem(4 bytes @ 0xE0001000) -- CPU_WriteMem(4 bytes @ 0xE0002008) -- CPU_WriteMem(4 bytes @ 0xE000200C) -- CPU_WriteMem(4 bytes @ 0xE0002010) -- CPU_WriteMem(4 bytes @ 0xE0002014) -- CPU_WriteMem(4 bytes @ 0xE0002018) -- CPU_WriteMem(4 bytes @ 0xE000201C) -- CPU_WriteMem(4 bytes @ 0xE0001004) (0009ms, 0725ms total)
T17114 002:940 JLINK_IsHalted()  returns TRUE (0003ms, 0728ms total)
T17114 002:944 JLINK_Halt()  returns 0x00 (0000ms, 0725ms total)
T17114 002:944 JLINK_IsHalted()  returns TRUE (0000ms, 0725ms total)
T17114 002:944 JLINK_IsHalted()  returns TRUE (0000ms, 0725ms total)
T17114 002:944 JLINK_IsHalted()  returns TRUE (0000ms, 0725ms total)
T17114 002:944 JLINK_ReadReg(R15 (PC))  returns 0x080042D8 (0000ms, 0725ms total)
T17114 002:944 JLINK_ReadReg(XPSR)  returns 0x61000000 (0000ms, 0725ms total)
T17114 002:944 JLINK_ClrBPEx(BPHandle = 0x00000001)  returns 0x00 (0000ms, 0725ms total)
T17114 002:944 JLINK_ReadMemU32(0xE000ED30, 0x0001 Items, ...) -- CPU_ReadMem(4 bytes @ 0xE000ED30) - Data: 03 00 00 00  returns 0x01 (0001ms, 0726ms total)
T17114 002:945 JLINK_ReadMemU32(0xE0001028, 0x0001 Items, ...) -- CPU_ReadMem(4 bytes @ 0xE0001028) - Data: 00 00 00 00  returns 0x01 (0001ms, 0727ms total)
T17114 002:946 JLINK_ReadMemU32(0xE0001038, 0x0001 Items, ...) -- CPU_ReadMem(4 bytes @ 0xE0001038) - Data: 00 02 00 00  returns 0x01 (0001ms, 0728ms total)
T17114 002:947 JLINK_ReadMemU32(0xE0001048, 0x0001 Items, ...) -- CPU_ReadMem(4 bytes @ 0xE0001048) - Data: 00 00 00 00  returns 0x01 (0001ms, 0729ms total)
T17114 002:948 JLINK_ReadMemU32(0xE0001058, 0x0001 Items, ...) -- CPU_ReadMem(4 bytes @ 0xE0001058) - Data: 00 00 00 00  returns 0x01 (0001ms, 0730ms total)
T17114 002:949 JLINK_ReadReg(R0)  returns 0x20001968 (0000ms, 0730ms total)
T17114 002:949 JLINK_ReadReg(R1)  returns 0x20002968 (0000ms, 0730ms total)
T17114 002:949 JLINK_ReadReg(R2)  returns 0x20002968 (0000ms, 0730ms total)
T17114 002:949 JLINK_ReadReg(R3)  returns 0x20002968 (0000ms, 0730ms total)
T17114 002:949 JLINK_ReadReg(R4)  returns 0x00000000 (0000ms, 0730ms total)
T17114 002:949 JLINK_ReadReg(R5)  returns 0x20001908 (0000ms, 0730ms total)
T17114 002:949 JLINK_ReadReg(R6)  returns 0x00000000 (0000ms, 0730ms total)
T17114 002:949 JLINK_ReadReg(R7)  returns 0x00000000 (0000ms, 0730ms total)
T17114 002:949 JLINK_ReadReg(R8)  returns 0x00000000 (0000ms, 0730ms total)
T17114 002:949 JLINK_ReadReg(R9)  returns 0x20000160 (0000ms, 0730ms total)
T17114 002:949 JLINK_ReadReg(R10)  returns 0x08005F5C (0000ms, 0730ms total)
T17114 002:949 JLINK_ReadReg(R11)  returns 0x00000000 (0000ms, 0730ms total)
T17114 002:949 JLINK_ReadReg(R12)  returns 0x20001948 (0000ms, 0730ms total)
T17114 002:949 JLINK_ReadReg(R13 (SP))  returns 0x20003168 (0000ms, 0730ms total)
T17114 002:949 JLINK_ReadReg(R14)  returns 0x08000267 (0000ms, 0730ms total)
T17114 002:949 JLINK_ReadReg(R15 (PC))  returns 0x080042D8 (0000ms, 0730ms total)
T17114 002:949 JLINK_ReadReg(XPSR)  returns 0x61000000 (0000ms, 0730ms total)
T17114 002:949 JLINK_ReadReg(MSP)  returns 0x20003168 (0000ms, 0730ms total)
T17114 002:949 JLINK_ReadReg(PSP)  returns 0x20001000 (0000ms, 0730ms total)
T17114 002:949 JLINK_ReadReg(CFBP)  returns 0x00000000 (0000ms, 0730ms total)
TF0EE0 002:952 JLINK_ReadMemU32(0xE0001004, 0x0001 Items, ...) -- CPU_ReadMem(4 bytes @ 0xE0001004) - Data: BD 4D 00 00  returns 0x01 (0000ms, 0730ms total)
TF0EE0 002:953 JLINK_ReadMem (0x20001610, 0x0004 Bytes, ...) -- CPU_ReadMem(64 bytes @ 0x20001600) -- Updating C cache (64 bytes @ 0x20001600) -- Read from C cache (4 bytes @ 0x20001610) - Data: 00 00 00 00  returns 0x00 (0001ms, 0731ms total)
TF0EE0 002:954 JLINK_ReadMem (0x20000078, 0x0002 Bytes, ...) -- CPU_ReadMem(64 bytes @ 0x20000040) -- Updating C cache (64 bytes @ 0x20000040) -- Read from C cache (2 bytes @ 0x20000078) - Data: 00 00  returns 0x00 (0002ms, 0733ms total)
TF0EE0 002:961 JLINK_ReadMem (0x080041D8, 0x003C Bytes, ...) -- CPU_ReadMem(128 bytes @ 0x080041C0) -- Updating C cache (128 bytes @ 0x080041C0) -- Read from C cache (60 bytes @ 0x080041D8) - Data: 23 78 3A 46 03 21 2A 98 FF F7 42 F8 82 46 01 F0 ...  returns 0x00 (0002ms, 0735ms total)
TF0EE0 002:963 JLINK_ReadMem (0x08004214, 0x003C Bytes, ...) -- CPU_ReadMem(64 bytes @ 0x08004240) -- Updating C cache (64 bytes @ 0x08004240) -- Read from C cache (60 bytes @ 0x08004214) - Data: 05 46 9D F8 10 00 01 F0 97 FC 02 90 9D F8 14 00 ...  returns 0x00 (0002ms, 0737ms total)
TF0EE0 002:965 JLINK_ReadMem (0x08004250, 0x003C Bytes, ...) -- CPU_ReadMem(64 bytes @ 0x08004280) -- Updating C cache (64 bytes @ 0x08004280) -- Read from C cache (60 bytes @ 0x08004250) - Data: 30 70 9D F8 11 00 01 F0 79 FC 02 90 9D F8 15 00 ...  returns 0x00 (0002ms, 0739ms total)
TF0EE0 002:967 JLINK_ReadMem (0x0800428C, 0x003C Bytes, ...) -- CPU_ReadMem(64 bytes @ 0x080042C0) -- Updating C cache (64 bytes @ 0x080042C0) -- Read from C cache (60 bytes @ 0x0800428C) - Data: 70 70 9D F8 12 00 01 F0 5B FC 02 90 9D F8 16 00 ...  returns 0x00 (0002ms, 0741ms total)
TF0EE0 002:969 JLINK_ReadMem (0x080042C8, 0x003C Bytes, ...) -- CPU_ReadMem(64 bytes @ 0x08004300) -- Updating C cache (64 bytes @ 0x08004300) -- Read from C cache (60 bytes @ 0x080042C8) - Data: B0 70 07 B0 BD E8 F0 8F 3A 15 00 20 00 00 7F 43 ...  returns 0x00 (0001ms, 0742ms total)
T17114 004:360 JLINK_SetBPEx(Addr = 0x080042DC, Type = 0xFFFFFFF2)  returns 0x00000002 (0000ms, 0742ms total)
T17114 004:360 JLINK_Go() -- CPU_WriteMem(4 bytes @ 0xE0002000) -- CPU_ReadMem(4 bytes @ 0xE0001000) -- CPU_WriteMem(4 bytes @ 0xE0002008) (0006ms, 0748ms total)
T17114 004:466 JLINK_IsHalted()  returns FALSE (0001ms, 0749ms total)
T17114 004:568 JLINK_IsHalted()  returns FALSE (0001ms, 0749ms total)
T17114 004:669 JLINK_IsHalted()  returns FALSE (0001ms, 0749ms total)
T17114 004:770 JLINK_IsHalted()  returns FALSE (0001ms, 0749ms total)
T17114 004:872 JLINK_ReadMemU32(0xE0001004, 0x0001 Items, ...) -- CPU is running -- CPU_ReadMem(4 bytes @ 0xE0001004) - Data: 72 55 2D 02  returns 0x01 (0001ms, 0749ms total)
TF0EE0 004:873 JLINK_ReadMem (0x20001610, 0x0004 Bytes, ...) -- CPU is running -- CPU_ReadMem(4 bytes @ 0x20001610) - Data: 00 00 00 00  returns 0x00 (0001ms, 0750ms total)
TF0EE0 004:874 JLINK_ReadMem (0x20000078, 0x0002 Bytes, ...) -- CPU is running -- CPU_ReadMem(2 bytes @ 0x20000078) - Data: 00 00  returns 0x00 (0001ms, 0751ms total)
T17114 004:876 JLINK_IsHalted()  returns FALSE (0000ms, 0751ms total)
T17114 004:977 JLINK_IsHalted()  returns FALSE (0001ms, 0752ms total)
T17114 005:078 JLINK_IsHalted()  returns FALSE (0001ms, 0752ms total)
T17114 005:179 JLINK_IsHalted()  returns FALSE (0001ms, 0752ms total)
T17114 005:281 JLINK_IsHalted()  returns FALSE (0001ms, 0752ms total)
T17114 005:382 JLINK_IsHalted()  returns FALSE (0002ms, 0753ms total)
T17114 005:484 JLINK_ReadMemU32(0xE0001004, 0x0001 Items, ...) -- CPU is running -- CPU_ReadMem(4 bytes @ 0xE0001004) - Data: 0F 9B CE 04  returns 0x01 (0001ms, 0752ms total)
TF0EE0 005:485 JLINK_ReadMem (0x20001610, 0x0004 Bytes, ...) -- CPU is running -- CPU_ReadMem(4 bytes @ 0x20001610) - Data: 00 00 00 00  returns 0x00 (0001ms, 0753ms total)
TF0EE0 005:487 JLINK_ReadMem (0x20000078, 0x0002 Bytes, ...) -- CPU is running -- CPU_ReadMem(2 bytes @ 0x20000078) - Data: 00 00  returns 0x00 (0001ms, 0754ms total)
T17114 005:488 JLINK_IsHalted()  returns FALSE (0001ms, 0755ms total)
T17114 005:589 JLINK_IsHalted()  returns FALSE (0001ms, 0755ms total)
T17114 005:690 JLINK_IsHalted()  returns FALSE (0001ms, 0755ms total)
T17114 005:792 JLINK_IsHalted()  returns FALSE (0001ms, 0755ms total)
T17114 005:893 JLINK_IsHalted()  returns FALSE (0001ms, 0755ms total)
T17114 005:994 JLINK_IsHalted()  returns FALSE (0001ms, 0755ms total)
T17114 006:095 JLINK_ReadMemU32(0xE0001004, 0x0001 Items, ...) -- CPU is running -- CPU_ReadMem(4 bytes @ 0xE0001004) - Data: 97 D0 6D 07  returns 0x01 (0001ms, 0755ms total)
TF0EE0 006:096 JLINK_ReadMem (0x20001610, 0x0004 Bytes, ...) -- CPU is running -- CPU_ReadMem(4 bytes @ 0x20001610) - Data: 00 00 00 00  returns 0x00 (0001ms, 0756ms total)
TF0EE0 006:097 JLINK_ReadMem (0x20000078, 0x0002 Bytes, ...) -- CPU is running -- CPU_ReadMem(2 bytes @ 0x20000078) - Data: 00 00  returns 0x00 (0002ms, 0758ms total)
T17114 006:099 JLINK_IsHalted()  returns FALSE (0001ms, 0759ms total)
T17114 006:201 JLINK_IsHalted()  returns FALSE (0001ms, 0759ms total)
T17114 006:302 JLINK_IsHalted()  returns FALSE (0001ms, 0759ms total)
T17114 006:404 JLINK_IsHalted()  returns FALSE (0001ms, 0759ms total)
T17114 006:506 JLINK_IsHalted()  returns FALSE (0001ms, 0759ms total)
T17114 006:607 JLINK_ReadMemU32(0xE0001004, 0x0001 Items, ...) -- CPU is running -- CPU_ReadMem(4 bytes @ 0xE0001004) - Data: 57 C8 A0 09  returns 0x01 (0001ms, 0759ms total)
TF0EE0 006:608 JLINK_ReadMem (0x20001610, 0x0004 Bytes, ...) -- CPU is running -- CPU_ReadMem(4 bytes @ 0x20001610) - Data: 00 00 00 00  returns 0x00 (0001ms, 0760ms total)
TF0EE0 006:610 JLINK_ReadMem (0x20000078, 0x0002 Bytes, ...) -- CPU is running -- CPU_ReadMem(2 bytes @ 0x20000078) - Data: 00 00  returns 0x00 (0001ms, 0761ms total)
T17114 006:611 JLINK_IsHalted()  returns FALSE (0001ms, 0762ms total)
T17114 006:713 JLINK_IsHalted()  returns TRUE (0004ms, 0765ms total)
T17114 006:717 JLINK_Halt()  returns 0x00 (0000ms, 0761ms total)
T17114 006:717 JLINK_IsHalted()  returns TRUE (0000ms, 0761ms total)
T17114 006:717 JLINK_IsHalted()  returns TRUE (0000ms, 0761ms total)
T17114 006:717 JLINK_IsHalted()  returns TRUE (0000ms, 0761ms total)
T17114 006:717 JLINK_ReadReg(R15 (PC))  returns 0x080042DC (0000ms, 0761ms total)
T17114 006:717 JLINK_ReadReg(XPSR)  returns 0x61000000 (0000ms, 0761ms total)
T17114 006:717 JLINK_ClrBPEx(BPHandle = 0x00000002)  returns 0x00 (0000ms, 0761ms total)
T17114 006:718 JLINK_ReadMemU32(0xE000ED30, 0x0001 Items, ...) -- CPU_ReadMem(4 bytes @ 0xE000ED30) - Data: 03 00 00 00  returns 0x01 (0000ms, 0761ms total)
T17114 006:719 JLINK_ReadMemU32(0xE0001028, 0x0001 Items, ...) -- CPU_ReadMem(4 bytes @ 0xE0001028) - Data: 00 00 00 00  returns 0x01 (0000ms, 0761ms total)
T17114 006:719 JLINK_ReadMemU32(0xE0001038, 0x0001 Items, ...) -- CPU_ReadMem(4 bytes @ 0xE0001038) - Data: 00 02 00 00  returns 0x01 (0002ms, 0763ms total)
T17114 006:721 JLINK_ReadMemU32(0xE0001048, 0x0001 Items, ...) -- CPU_ReadMem(4 bytes @ 0xE0001048) - Data: 00 00 00 00  returns 0x01 (0000ms, 0763ms total)
T17114 006:721 JLINK_ReadMemU32(0xE0001058, 0x0001 Items, ...) -- CPU_ReadMem(4 bytes @ 0xE0001058) - Data: 00 00 00 00  returns 0x01 (0002ms, 0765ms total)
T17114 006:723 JLINK_ReadReg(R0)  returns 0x00000000 (0000ms, 0765ms total)
T17114 006:723 JLINK_ReadReg(R1)  returns 0x20000064 (0000ms, 0765ms total)
T17114 006:723 JLINK_ReadReg(R2)  returns 0x08003499 (0000ms, 0765ms total)
T17114 006:723 JLINK_ReadReg(R3)  returns 0x00000001 (0000ms, 0765ms total)
T17114 006:723 JLINK_ReadReg(R4)  returns 0x00000000 (0000ms, 0765ms total)
T17114 006:723 JLINK_ReadReg(R5)  returns 0x20001908 (0000ms, 0765ms total)
T17114 006:723 JLINK_ReadReg(R6)  returns 0x00000000 (0000ms, 0765ms total)
T17114 006:723 JLINK_ReadReg(R7)  returns 0x00000000 (0000ms, 0765ms total)
T17114 006:723 JLINK_ReadReg(R8)  returns 0x00000000 (0000ms, 0765ms total)
T17114 006:723 JLINK_ReadReg(R9)  returns 0x20000160 (0000ms, 0765ms total)
T17114 006:723 JLINK_ReadReg(R10)  returns 0x08005F5C (0000ms, 0765ms total)
T17114 006:723 JLINK_ReadReg(R11)  returns 0x00000000 (0000ms, 0765ms total)
T17114 006:723 JLINK_ReadReg(R12)  returns 0x00000001 (0000ms, 0765ms total)
T17114 006:723 JLINK_ReadReg(R13 (SP))  returns 0x20003168 (0000ms, 0765ms total)
T17114 006:723 JLINK_ReadReg(R14)  returns 0x08000621 (0000ms, 0765ms total)
T17114 006:723 JLINK_ReadReg(R15 (PC))  returns 0x080042DC (0001ms, 0766ms total)
T17114 006:724 JLINK_ReadReg(XPSR)  returns 0x61000000 (0000ms, 0766ms total)
T17114 006:724 JLINK_ReadReg(MSP)  returns 0x20003168 (0000ms, 0766ms total)
T17114 006:724 JLINK_ReadReg(PSP)  returns 0x20001000 (0000ms, 0766ms total)
T17114 006:724 JLINK_ReadReg(CFBP)  returns 0x00000000 (0000ms, 0766ms total)
TF0EE0 006:724 JLINK_ReadMemU32(0xE0001004, 0x0001 Items, ...) -- CPU_ReadMem(4 bytes @ 0xE0001004) - Data: 76 DF FB 09  returns 0x01 (0001ms, 0767ms total)
TF0EE0 006:725 JLINK_ReadMem (0x20001610, 0x0004 Bytes, ...) -- CPU_ReadMem(64 bytes @ 0x20001600) -- Updating C cache (64 bytes @ 0x20001600) -- Read from C cache (4 bytes @ 0x20001610) - Data: 00 00 00 00  returns 0x00 (0002ms, 0769ms total)
TF0EE0 006:727 JLINK_ReadMem (0x20000078, 0x0002 Bytes, ...) -- CPU_ReadMem(64 bytes @ 0x20000040) -- Updating C cache (64 bytes @ 0x20000040) -- Read from C cache (2 bytes @ 0x20000078) - Data: 00 00  returns 0x00 (0001ms, 0770ms total)
TF0EE0 006:737 JLINK_ReadMem (0x080042D6, 0x0002 Bytes, ...) -- CPU_ReadMem(64 bytes @ 0x080042C0) -- Updating C cache (64 bytes @ 0x080042C0) -- Read from C cache (2 bytes @ 0x080042D6) - Data: 7F 43  returns 0x00 (0002ms, 0772ms total)
TF0EE0 006:739 JLINK_ReadMem (0x080042D8, 0x003C Bytes, ...) -- CPU_ReadMem(64 bytes @ 0x08004300) -- Updating C cache (64 bytes @ 0x08004300) -- Read from C cache (60 bytes @ 0x080042D8) - Data: FF F7 98 F8 00 F0 8C F8 00 F0 46 FD FE F7 F4 FE ...  returns 0x00 (0001ms, 0773ms total)
T17114 007:176 JLINK_SetBPEx(Addr = 0x080042E0, Type = 0xFFFFFFF2)  returns 0x00000003 (0000ms, 0773ms total)
T17114 007:177 JLINK_Go() -- CPU_WriteMem(4 bytes @ 0xE0002000) -- CPU_ReadMem(4 bytes @ 0xE0001000) -- CPU_WriteMem(4 bytes @ 0xE0002008) (0003ms, 0777ms total)
T17114 007:281 JLINK_IsHalted()  returns TRUE (0004ms, 0781ms total)
T17114 007:285 JLINK_Halt()  returns 0x00 (0000ms, 0777ms total)
T17114 007:285 JLINK_IsHalted()  returns TRUE (0000ms, 0777ms total)
T17114 007:285 JLINK_IsHalted()  returns TRUE (0000ms, 0777ms total)
T17114 007:285 JLINK_IsHalted()  returns TRUE (0000ms, 0777ms total)
T17114 007:285 JLINK_ReadReg(R15 (PC))  returns 0x080042E0 (0000ms, 0777ms total)
T17114 007:285 JLINK_ReadReg(XPSR)  returns 0x61000000 (0000ms, 0777ms total)
T17114 007:285 JLINK_ClrBPEx(BPHandle = 0x00000003)  returns 0x00 (0000ms, 0777ms total)
T17114 007:285 JLINK_ReadMemU32(0xE000ED30, 0x0001 Items, ...) -- CPU_ReadMem(4 bytes @ 0xE000ED30) - Data: 03 00 00 00  returns 0x01 (0001ms, 0778ms total)
T17114 007:286 JLINK_ReadMemU32(0xE0001028, 0x0001 Items, ...) -- CPU_ReadMem(4 bytes @ 0xE0001028) - Data: 00 00 00 00  returns 0x01 (0001ms, 0779ms total)
T17114 007:287 JLINK_ReadMemU32(0xE0001038, 0x0001 Items, ...) -- CPU_ReadMem(4 bytes @ 0xE0001038) - Data: 00 02 00 00  returns 0x01 (0001ms, 0780ms total)
T17114 007:288 JLINK_ReadMemU32(0xE0001048, 0x0001 Items, ...) -- CPU_ReadMem(4 bytes @ 0xE0001048) - Data: 00 00 00 00  returns 0x01 (0001ms, 0781ms total)
T17114 007:289 JLINK_ReadMemU32(0xE0001058, 0x0001 Items, ...) -- CPU_ReadMem(4 bytes @ 0xE0001058) - Data: 00 00 00 00  returns 0x01 (0001ms, 0782ms total)
T17114 007:290 JLINK_ReadReg(R0)  returns 0x6CFD98A7 (0000ms, 0782ms total)
T17114 007:290 JLINK_ReadReg(R1)  returns 0xFFFFFFFF (0000ms, 0782ms total)
T17114 007:290 JLINK_ReadReg(R2)  returns 0x20001824 (0000ms, 0782ms total)
T17114 007:290 JLINK_ReadReg(R3)  returns 0x00000000 (0000ms, 0782ms total)
T17114 007:290 JLINK_ReadReg(R4)  returns 0x00000000 (0000ms, 0782ms total)
T17114 007:290 JLINK_ReadReg(R5)  returns 0x20001908 (0000ms, 0782ms total)
T17114 007:290 JLINK_ReadReg(R6)  returns 0x00000000 (0000ms, 0782ms total)
T17114 007:290 JLINK_ReadReg(R7)  returns 0x00000000 (0001ms, 0783ms total)
T17114 007:291 JLINK_ReadReg(R8)  returns 0x00000000 (0000ms, 0783ms total)
T17114 007:291 JLINK_ReadReg(R9)  returns 0x20000160 (0000ms, 0783ms total)
T17114 007:291 JLINK_ReadReg(R10)  returns 0x08005F5C (0000ms, 0783ms total)
T17114 007:291 JLINK_ReadReg(R11)  returns 0x00000000 (0000ms, 0783ms total)
T17114 007:291 JLINK_ReadReg(R12)  returns 0x00000001 (0000ms, 0783ms total)
T17114 007:291 JLINK_ReadReg(R13 (SP))  returns 0x20003168 (0000ms, 0783ms total)
T17114 007:291 JLINK_ReadReg(R14)  returns 0x080044B1 (0000ms, 0783ms total)
T17114 007:291 JLINK_ReadReg(R15 (PC))  returns 0x080042E0 (0000ms, 0783ms total)
T17114 007:291 JLINK_ReadReg(XPSR)  returns 0x61000000 (0000ms, 0783ms total)
T17114 007:291 JLINK_ReadReg(MSP)  returns 0x20003168 (0000ms, 0783ms total)
T17114 007:291 JLINK_ReadReg(PSP)  returns 0x20001000 (0000ms, 0783ms total)
T17114 007:291 JLINK_ReadReg(CFBP)  returns 0x00000000 (0000ms, 0783ms total)
TF0EE0 007:291 JLINK_ReadMemU32(0xE0001004, 0x0001 Items, ...) -- CPU_ReadMem(4 bytes @ 0xE0001004) - Data: 3D 4B FD 09  returns 0x01 (0001ms, 0784ms total)
TF0EE0 007:293 JLINK_ReadMem (0x20001610, 0x0004 Bytes, ...) -- CPU_ReadMem(64 bytes @ 0x20001600) -- Updating C cache (64 bytes @ 0x20001600) -- Read from C cache (4 bytes @ 0x20001610) - Data: 00 00 00 00  returns 0x00 (0001ms, 0785ms total)
TF0EE0 007:294 JLINK_ReadMem (0x20000078, 0x0002 Bytes, ...) -- CPU_ReadMem(64 bytes @ 0x20000040) -- Updating C cache (64 bytes @ 0x20000040) -- Read from C cache (2 bytes @ 0x20000078) - Data: 00 00  returns 0x00 (0002ms, 0787ms total)
T17114 007:786 JLINK_ReadMem (0x080042E0, 0x003C Bytes, ...) -- CPU_ReadMem(128 bytes @ 0x080042C0) -- Updating C cache (128 bytes @ 0x080042C0) -- Read from C cache (60 bytes @ 0x080042E0) - Data: 00 F0 46 FD FE F7 F4 FE 00 F0 10 F9 0B 48 FF F7 ...  returns 0x00 (0004ms, 0791ms total)
T17114 007:790 JLINK_SetBPEx(Addr = 0x080042E4, Type = 0xFFFFFFF2)  returns 0x00000004 (0000ms, 0791ms total)
T17114 007:790 JLINK_Go() -- CPU_WriteMem(4 bytes @ 0xE0002000) -- CPU_ReadMem(4 bytes @ 0xE0001000) -- CPU_WriteMem(4 bytes @ 0xE0002008) (0005ms, 0796ms total)
T17114 007:896 JLINK_IsHalted()  returns TRUE (0004ms, 0800ms total)
T17114 007:900 JLINK_Halt()  returns 0x00 (0000ms, 0796ms total)
T17114 007:900 JLINK_IsHalted()  returns TRUE (0000ms, 0796ms total)
T17114 007:900 JLINK_IsHalted()  returns TRUE (0000ms, 0796ms total)
T17114 007:900 JLINK_IsHalted()  returns TRUE (0000ms, 0796ms total)
T17114 007:900 JLINK_ReadReg(R15 (PC))  returns 0x080042E4 (0000ms, 0796ms total)
T17114 007:900 JLINK_ReadReg(XPSR)  returns 0x21000000 (0000ms, 0796ms total)
T17114 007:900 JLINK_ClrBPEx(BPHandle = 0x00000004)  returns 0x00 (0000ms, 0796ms total)
T17114 007:900 JLINK_ReadMemU32(0xE000ED30, 0x0001 Items, ...) -- CPU_ReadMem(4 bytes @ 0xE000ED30) - Data: 03 00 00 00  returns 0x01 (0001ms, 0797ms total)
T17114 007:901 JLINK_ReadMemU32(0xE0001028, 0x0001 Items, ...) -- CPU_ReadMem(4 bytes @ 0xE0001028) - Data: 00 00 00 00  returns 0x01 (0001ms, 0798ms total)
T17114 007:902 JLINK_ReadMemU32(0xE0001038, 0x0001 Items, ...) -- CPU_ReadMem(4 bytes @ 0xE0001038) - Data: 00 02 00 00  returns 0x01 (0001ms, 0799ms total)
T17114 007:903 JLINK_ReadMemU32(0xE0001048, 0x0001 Items, ...) -- CPU_ReadMem(4 bytes @ 0xE0001048) - Data: 00 00 00 00  returns 0x01 (0001ms, 0800ms total)
T17114 007:904 JLINK_ReadMemU32(0xE0001058, 0x0001 Items, ...) -- CPU_ReadMem(4 bytes @ 0xE0001058) - Data: 00 00 00 00  returns 0x01 (0001ms, 0801ms total)
T17114 007:905 JLINK_ReadReg(R0)  returns 0x00000007 (0000ms, 0801ms total)
T17114 007:905 JLINK_ReadReg(R1)  returns 0x00011940 (0000ms, 0801ms total)
T17114 007:905 JLINK_ReadReg(R2)  returns 0xE000E000 (0000ms, 0801ms total)
T17114 007:905 JLINK_ReadReg(R3)  returns 0xE000ED18 (0000ms, 0801ms total)
T17114 007:905 JLINK_ReadReg(R4)  returns 0x00000000 (0000ms, 0801ms total)
T17114 007:905 JLINK_ReadReg(R5)  returns 0x20001908 (0000ms, 0801ms total)
T17114 007:905 JLINK_ReadReg(R6)  returns 0x00000000 (0000ms, 0801ms total)
T17114 007:905 JLINK_ReadReg(R7)  returns 0x00000000 (0000ms, 0801ms total)
T17114 007:905 JLINK_ReadReg(R8)  returns 0x00000000 (0000ms, 0801ms total)
T17114 007:905 JLINK_ReadReg(R9)  returns 0x20000160 (0000ms, 0801ms total)
T17114 007:906 JLINK_ReadReg(R10)  returns 0x08005F5C (0000ms, 0801ms total)
T17114 007:906 JLINK_ReadReg(R11)  returns 0x00000000 (0000ms, 0801ms total)
T17114 007:906 JLINK_ReadReg(R12)  returns 0x00000001 (0000ms, 0801ms total)
T17114 007:906 JLINK_ReadReg(R13 (SP))  returns 0x20003168 (0000ms, 0801ms total)
T17114 007:906 JLINK_ReadReg(R14)  returns 0x080042E5 (0000ms, 0801ms total)
T17114 007:906 JLINK_ReadReg(R15 (PC))  returns 0x080042E4 (0000ms, 0801ms total)
T17114 007:906 JLINK_ReadReg(XPSR)  returns 0x21000000 (0000ms, 0801ms total)
T17114 007:906 JLINK_ReadReg(MSP)  returns 0x20003168 (0000ms, 0801ms total)
T17114 007:906 JLINK_ReadReg(PSP)  returns 0x20001000 (0000ms, 0801ms total)
T17114 007:906 JLINK_ReadReg(CFBP)  returns 0x00000000 (0000ms, 0801ms total)
TF0EE0 007:907 JLINK_ReadMemU32(0xE0001004, 0x0001 Items, ...) -- CPU_ReadMem(4 bytes @ 0xE0001004) - Data: 63 BE FD 09  returns 0x01 (0001ms, 0802ms total)
TF0EE0 007:908 JLINK_ReadMem (0x20001610, 0x0004 Bytes, ...) -- CPU_ReadMem(64 bytes @ 0x20001600) -- Updating C cache (64 bytes @ 0x20001600) -- Read from C cache (4 bytes @ 0x20001610) - Data: 00 00 00 00  returns 0x00 (0002ms, 0804ms total)
TF0EE0 007:910 JLINK_ReadMem (0x20000078, 0x0002 Bytes, ...) -- CPU_ReadMem(64 bytes @ 0x20000040) -- Updating C cache (64 bytes @ 0x20000040) -- Read from C cache (2 bytes @ 0x20000078) - Data: 00 00  returns 0x00 (0002ms, 0806ms total)
TF0EE0 007:919 JLINK_ReadMem (0x080042E0, 0x003C Bytes, ...) -- CPU_ReadMem(128 bytes @ 0x080042C0) -- Updating C cache (128 bytes @ 0x080042C0) -- Read from C cache (60 bytes @ 0x080042E0) - Data: 00 F0 46 FD FE F7 F4 FE 00 F0 10 F9 0B 48 FF F7 ...  returns 0x00 (0002ms, 0808ms total)
T17114 008:625 JLINK_SetBPEx(Addr = 0x080042E8, Type = 0xFFFFFFF2)  returns 0x00000005 (0000ms, 0808ms total)
T17114 008:625 JLINK_Go() -- CPU_WriteMem(4 bytes @ 0xE0002000) -- CPU_ReadMem(4 bytes @ 0xE0001000) -- CPU_WriteMem(4 bytes @ 0xE0002008) (0006ms, 0814ms total)
T17114 008:732 JLINK_IsHalted()  returns TRUE (0004ms, 0818ms total)
T17114 008:736 JLINK_Halt()  returns 0x00 (0000ms, 0814ms total)
T17114 008:736 JLINK_IsHalted()  returns TRUE (0000ms, 0814ms total)
T17114 008:736 JLINK_IsHalted()  returns TRUE (0000ms, 0814ms total)
T17114 008:736 JLINK_IsHalted()  returns TRUE (0000ms, 0814ms total)
T17114 008:736 JLINK_ReadReg(R15 (PC))  returns 0x080042E8 (0000ms, 0814ms total)
T17114 008:736 JLINK_ReadReg(XPSR)  returns 0x61000000 (0000ms, 0814ms total)
T17114 008:736 JLINK_ClrBPEx(BPHandle = 0x00000005)  returns 0x00 (0000ms, 0814ms total)
T17114 008:736 JLINK_ReadMemU32(0xE000ED30, 0x0001 Items, ...) -- CPU_ReadMem(4 bytes @ 0xE000ED30) - Data: 03 00 00 00  returns 0x01 (0002ms, 0816ms total)
T17114 008:738 JLINK_ReadMemU32(0xE0001028, 0x0001 Items, ...) -- CPU_ReadMem(4 bytes @ 0xE0001028) - Data: 00 00 00 00  returns 0x01 (0000ms, 0816ms total)
T17114 008:738 JLINK_ReadMemU32(0xE0001038, 0x0001 Items, ...) -- CPU_ReadMem(4 bytes @ 0xE0001038) - Data: 00 02 00 00  returns 0x01 (0001ms, 0817ms total)
T17114 008:739 JLINK_ReadMemU32(0xE0001048, 0x0001 Items, ...) -- CPU_ReadMem(4 bytes @ 0xE0001048) - Data: 00 00 00 00  returns 0x01 (0002ms, 0819ms total)
T17114 008:741 JLINK_ReadMemU32(0xE0001058, 0x0001 Items, ...) -- CPU_ReadMem(4 bytes @ 0xE0001058) - Data: 00 00 00 00  returns 0x01 (0000ms, 0819ms total)
T17114 008:742 JLINK_ReadReg(R0)  returns 0x00000000 (0000ms, 0819ms total)
T17114 008:742 JLINK_ReadReg(R1)  returns 0x200006A0 (0000ms, 0819ms total)
T17114 008:742 JLINK_ReadReg(R2)  returns 0x080031AF (0000ms, 0819ms total)
T17114 008:742 JLINK_ReadReg(R3)  returns 0x080031D1 (0000ms, 0819ms total)
T17114 008:742 JLINK_ReadReg(R4)  returns 0x00000000 (0000ms, 0819ms total)
T17114 008:742 JLINK_ReadReg(R5)  returns 0x20001908 (0000ms, 0819ms total)
T17114 008:742 JLINK_ReadReg(R6)  returns 0x00000000 (0000ms, 0819ms total)
T17114 008:742 JLINK_ReadReg(R7)  returns 0x00000000 (0000ms, 0819ms total)
T17114 008:742 JLINK_ReadReg(R8)  returns 0x00000000 (0000ms, 0819ms total)
T17114 008:742 JLINK_ReadReg(R9)  returns 0x20000160 (0000ms, 0819ms total)
T17114 008:742 JLINK_ReadReg(R10)  returns 0x08005F5C (0000ms, 0819ms total)
T17114 008:742 JLINK_ReadReg(R11)  returns 0x00000000 (0000ms, 0819ms total)
T17114 008:742 JLINK_ReadReg(R12)  returns 0x00000001 (0000ms, 0819ms total)
T17114 008:742 JLINK_ReadReg(R13 (SP))  returns 0x20003168 (0000ms, 0819ms total)
T17114 008:742 JLINK_ReadReg(R14)  returns 0x08000621 (0000ms, 0819ms total)
T17114 008:742 JLINK_ReadReg(R15 (PC))  returns 0x080042E8 (0000ms, 0819ms total)
T17114 008:742 JLINK_ReadReg(XPSR)  returns 0x61000000 (0000ms, 0819ms total)
T17114 008:742 JLINK_ReadReg(MSP)  returns 0x20003168 (0000ms, 0819ms total)
T17114 008:742 JLINK_ReadReg(PSP)  returns 0x20001000 (0000ms, 0819ms total)
T17114 008:742 JLINK_ReadReg(CFBP)  returns 0x00000000 (0000ms, 0819ms total)
TF0EE0 008:743 JLINK_ReadMemU32(0xE0001004, 0x0001 Items, ...) -- CPU_ReadMem(4 bytes @ 0xE0001004) - Data: CC B0 03 0A  returns 0x01 (0001ms, 0820ms total)
TF0EE0 008:744 JLINK_ReadMem (0x20001610, 0x0004 Bytes, ...) -- CPU_ReadMem(64 bytes @ 0x20001600) -- Updating C cache (64 bytes @ 0x20001600) -- Read from C cache (4 bytes @ 0x20001610) - Data: 00 00 00 00  returns 0x00 (0002ms, 0822ms total)
TF0EE0 008:746 JLINK_ReadMem (0x20000078, 0x0002 Bytes, ...) -- CPU_ReadMem(64 bytes @ 0x20000040) -- Updating C cache (64 bytes @ 0x20000040) -- Read from C cache (2 bytes @ 0x20000078) - Data: 00 00  returns 0x00 (0002ms, 0824ms total)
TF0EE0 008:758 JLINK_ReadMem (0x080042E0, 0x003C Bytes, ...) -- CPU_ReadMem(128 bytes @ 0x080042C0) -- Updating C cache (128 bytes @ 0x080042C0) -- Read from C cache (60 bytes @ 0x080042E0) - Data: 00 F0 46 FD FE F7 F4 FE 00 F0 10 F9 0B 48 FF F7 ...  returns 0x00 (0002ms, 0826ms total)
T17114 009:770 JLINK_Step() -- Read from C cache (2 bytes @ 0x080042E8) -- Read from C cache (2 bytes @ 0x080042EA) -- Simulated  returns 0x00 (0002ms, 0828ms total)
T17114 009:772 JLINK_ReadReg(R15 (PC))  returns 0x0800450C (0000ms, 0828ms total)
T17114 009:772 JLINK_ReadReg(XPSR)  returns 0x61000000 (0000ms, 0828ms total)
T17114 009:772 JLINK_ReadReg(R0)  returns 0x00000000 (0000ms, 0828ms total)
T17114 009:772 JLINK_ReadReg(R1)  returns 0x200006A0 (0000ms, 0828ms total)
T17114 009:772 JLINK_ReadReg(R2)  returns 0x080031AF (0000ms, 0828ms total)
T17114 009:772 JLINK_ReadReg(R3)  returns 0x080031D1 (0000ms, 0828ms total)
T17114 009:772 JLINK_ReadReg(R4)  returns 0x00000000 (0000ms, 0828ms total)
T17114 009:772 JLINK_ReadReg(R5)  returns 0x20001908 (0000ms, 0828ms total)
T17114 009:772 JLINK_ReadReg(R6)  returns 0x00000000 (0000ms, 0828ms total)
T17114 009:772 JLINK_ReadReg(R7)  returns 0x00000000 (0000ms, 0828ms total)
T17114 009:772 JLINK_ReadReg(R8)  returns 0x00000000 (0000ms, 0828ms total)
T17114 009:772 JLINK_ReadReg(R9)  returns 0x20000160 (0000ms, 0828ms total)
T17114 009:772 JLINK_ReadReg(R10)  returns 0x08005F5C (0000ms, 0828ms total)
T17114 009:772 JLINK_ReadReg(R11)  returns 0x00000000 (0000ms, 0828ms total)
T17114 009:772 JLINK_ReadReg(R12)  returns 0x00000001 (0000ms, 0828ms total)
T17114 009:772 JLINK_ReadReg(R13 (SP))  returns 0x20003168 (0000ms, 0828ms total)
T17114 009:772 JLINK_ReadReg(R14)  returns 0x080042ED (0000ms, 0828ms total)
T17114 009:772 JLINK_ReadReg(R15 (PC))  returns 0x0800450C (0000ms, 0828ms total)
T17114 009:772 JLINK_ReadReg(XPSR)  returns 0x61000000 (0000ms, 0828ms total)
T17114 009:772 JLINK_ReadReg(MSP)  returns 0x20003168 (0001ms, 0829ms total)
T17114 009:773 JLINK_ReadReg(PSP)  returns 0x20001000 (0000ms, 0829ms total)
T17114 009:773 JLINK_ReadReg(CFBP)  returns 0x00000000 (0000ms, 0829ms total)
TF0EE0 009:774 JLINK_ReadMemU32(0xE0001004, 0x0001 Items, ...) - Data: CC B0 03 0A  returns 0x01 (0000ms, 0829ms total)
TF0EE0 009:774 JLINK_ReadMem (0x20001610, 0x0004 Bytes, ...) -- Read from C cache (4 bytes @ 0x20001610) - Data: 00 00 00 00  returns 0x00 (0000ms, 0829ms total)
TF0EE0 009:774 JLINK_ReadMem (0x20000078, 0x0002 Bytes, ...) -- Read from C cache (2 bytes @ 0x20000078) - Data: 00 00  returns 0x00 (0000ms, 0829ms total)
TF0EE0 009:782 JLINK_ReadMem (0x0800450A, 0x0002 Bytes, ...) -- CPU_ReadMem(64 bytes @ 0x08004500) -- Updating C cache (64 bytes @ 0x08004500) -- Read from C cache (2 bytes @ 0x0800450A) - Data: 70 47  returns 0x00 (0002ms, 0831ms total)
TF0EE0 009:784 JLINK_ReadMem (0x0800450C, 0x003C Bytes, ...) -- CPU_ReadMem(64 bytes @ 0x08004540) -- Updating C cache (64 bytes @ 0x08004540) -- Read from C cache (60 bytes @ 0x0800450C) - Data: 10 B5 13 48 13 49 48 60 02 20 88 60 7F 20 08 80 ...  returns 0x00 (0002ms, 0833ms total)
T17114 010:530 JLINK_Step() -- Read from C cache (2 bytes @ 0x0800450C) -- CPU_WriteMem(8 bytes @ 0x20003160) -- Simulated  returns 0x00 (0002ms, 0835ms total)
T17114 010:532 JLINK_ReadReg(R15 (PC))  returns 0x0800450E (0000ms, 0835ms total)
T17114 010:532 JLINK_ReadReg(XPSR)  returns 0x61000000 (0000ms, 0835ms total)
T17114 010:532 JLINK_ReadReg(R0)  returns 0x00000000 (0000ms, 0835ms total)
T17114 010:532 JLINK_ReadReg(R1)  returns 0x200006A0 (0001ms, 0836ms total)
T17114 010:533 JLINK_ReadReg(R2)  returns 0x080031AF (0000ms, 0836ms total)
T17114 010:533 JLINK_ReadReg(R3)  returns 0x080031D1 (0000ms, 0836ms total)
T17114 010:533 JLINK_ReadReg(R4)  returns 0x00000000 (0000ms, 0836ms total)
T17114 010:533 JLINK_ReadReg(R5)  returns 0x20001908 (0000ms, 0836ms total)
T17114 010:533 JLINK_ReadReg(R6)  returns 0x00000000 (0000ms, 0836ms total)
T17114 010:533 JLINK_ReadReg(R7)  returns 0x00000000 (0000ms, 0836ms total)
T17114 010:533 JLINK_ReadReg(R8)  returns 0x00000000 (0000ms, 0836ms total)
T17114 010:533 JLINK_ReadReg(R9)  returns 0x20000160 (0000ms, 0836ms total)
T17114 010:533 JLINK_ReadReg(R10)  returns 0x08005F5C (0000ms, 0836ms total)
T17114 010:533 JLINK_ReadReg(R11)  returns 0x00000000 (0000ms, 0836ms total)
T17114 010:533 JLINK_ReadReg(R12)  returns 0x00000001 (0000ms, 0836ms total)
T17114 010:533 JLINK_ReadReg(R13 (SP))  returns 0x20003160 (0000ms, 0836ms total)
T17114 010:533 JLINK_ReadReg(R14)  returns 0x080042ED (0000ms, 0836ms total)
T17114 010:533 JLINK_ReadReg(R15 (PC))  returns 0x0800450E (0000ms, 0836ms total)
T17114 010:533 JLINK_ReadReg(XPSR)  returns 0x61000000 (0000ms, 0836ms total)
T17114 010:533 JLINK_ReadReg(MSP)  returns 0x20003160 (0000ms, 0836ms total)
T17114 010:533 JLINK_ReadReg(PSP)  returns 0x20001000 (0000ms, 0836ms total)
T17114 010:533 JLINK_ReadReg(CFBP)  returns 0x00000000 (0000ms, 0836ms total)
TF0EE0 010:534 JLINK_ReadMem (0x20003164, 0x0004 Bytes, ...) -- CPU_ReadMem(64 bytes @ 0x20003140) -- Updating C cache (64 bytes @ 0x20003140) -- Read from C cache (4 bytes @ 0x20003164) - Data: ED 42 00 08  returns 0x00 (0002ms, 0838ms total)
TF0EE0 010:536 JLINK_ReadMem (0x20003160, 0x0004 Bytes, ...) -- Read from C cache (4 bytes @ 0x20003160) - Data: 00 00 00 00  returns 0x00 (0000ms, 0838ms total)
TF0EE0 010:536 JLINK_ReadMemU32(0xE0001004, 0x0001 Items, ...) - Data: CC B0 03 0A  returns 0x01 (0000ms, 0838ms total)
TF0EE0 010:536 JLINK_ReadMem (0x20001610, 0x0004 Bytes, ...) -- Read from C cache (4 bytes @ 0x20001610) - Data: 00 00 00 00  returns 0x00 (0000ms, 0838ms total)
TF0EE0 010:536 JLINK_ReadMem (0x20000078, 0x0002 Bytes, ...) -- Read from C cache (2 bytes @ 0x20000078) - Data: 00 00  returns 0x00 (0000ms, 0838ms total)
TF0EE0 010:545 JLINK_ReadMem (0x0800450A, 0x0002 Bytes, ...) -- Read from C cache (2 bytes @ 0x0800450A) - Data: 70 47  returns 0x00 (0000ms, 0838ms total)
TF0EE0 010:545 JLINK_ReadMem (0x0800450C, 0x003C Bytes, ...) -- Read from C cache (60 bytes @ 0x0800450C) - Data: 10 B5 13 48 13 49 48 60 02 20 88 60 7F 20 08 80 ...  returns 0x00 (0000ms, 0838ms total)
T17114 011:004 JLINK_Step() -- Read from C cache (2 bytes @ 0x0800450E) -- Read from C cache (4 bytes @ 0x0800455C) -- Simulated  returns 0x00 (0001ms, 0839ms total)
T17114 011:005 JLINK_ReadReg(R15 (PC))  returns 0x08004510 (0000ms, 0839ms total)
T17114 011:005 JLINK_ReadReg(XPSR)  returns 0x61000000 (0000ms, 0839ms total)
T17114 011:005 JLINK_Step() -- Read from C cache (2 bytes @ 0x08004510) -- Read from C cache (4 bytes @ 0x08004560) -- Simulated  returns 0x00 (0000ms, 0839ms total)
T17114 011:005 JLINK_ReadReg(R15 (PC))  returns 0x08004512 (0000ms, 0839ms total)
T17114 011:005 JLINK_ReadReg(XPSR)  returns 0x61000000 (0001ms, 0840ms total)
T17114 011:006 JLINK_Step() -- Read from C cache (2 bytes @ 0x08004512) -- CPU_WriteMem(4 bytes @ 0x200016C8) -- Simulated  returns 0x00 (0001ms, 0841ms total)
T17114 011:007 JLINK_ReadReg(R15 (PC))  returns 0x08004514 (0000ms, 0841ms total)
T17114 011:007 JLINK_ReadReg(XPSR)  returns 0x61000000 (0000ms, 0841ms total)
T17114 011:007 JLINK_ReadReg(R0)  returns 0x20000078 (0000ms, 0841ms total)
T17114 011:007 JLINK_ReadReg(R1)  returns 0x200016C4 (0000ms, 0841ms total)
T17114 011:007 JLINK_ReadReg(R2)  returns 0x080031AF (0000ms, 0841ms total)
T17114 011:007 JLINK_ReadReg(R3)  returns 0x080031D1 (0000ms, 0841ms total)
T17114 011:007 JLINK_ReadReg(R4)  returns 0x00000000 (0000ms, 0841ms total)
T17114 011:007 JLINK_ReadReg(R5)  returns 0x20001908 (0000ms, 0841ms total)
T17114 011:007 JLINK_ReadReg(R6)  returns 0x00000000 (0000ms, 0841ms total)
T17114 011:007 JLINK_ReadReg(R7)  returns 0x00000000 (0000ms, 0841ms total)
T17114 011:007 JLINK_ReadReg(R8)  returns 0x00000000 (0000ms, 0841ms total)
T17114 011:007 JLINK_ReadReg(R9)  returns 0x20000160 (0000ms, 0841ms total)
T17114 011:007 JLINK_ReadReg(R10)  returns 0x08005F5C (0000ms, 0841ms total)
T17114 011:007 JLINK_ReadReg(R11)  returns 0x00000000 (0000ms, 0841ms total)
T17114 011:007 JLINK_ReadReg(R12)  returns 0x00000001 (0001ms, 0842ms total)
T17114 011:008 JLINK_ReadReg(R13 (SP))  returns 0x20003160 (0000ms, 0842ms total)
T17114 011:008 JLINK_ReadReg(R14)  returns 0x080042ED (0000ms, 0842ms total)
T17114 011:008 JLINK_ReadReg(R15 (PC))  returns 0x08004514 (0000ms, 0842ms total)
T17114 011:008 JLINK_ReadReg(XPSR)  returns 0x61000000 (0000ms, 0842ms total)
T17114 011:008 JLINK_ReadReg(MSP)  returns 0x20003160 (0000ms, 0842ms total)
T17114 011:008 JLINK_ReadReg(PSP)  returns 0x20001000 (0000ms, 0842ms total)
T17114 011:008 JLINK_ReadReg(CFBP)  returns 0x00000000 (0000ms, 0842ms total)
TF0EE0 011:008 JLINK_ReadMem (0x20003164, 0x0004 Bytes, ...) -- Read from C cache (4 bytes @ 0x20003164) - Data: ED 42 00 08  returns 0x00 (0000ms, 0842ms total)
TF0EE0 011:008 JLINK_ReadMem (0x20003160, 0x0004 Bytes, ...) -- Read from C cache (4 bytes @ 0x20003160) - Data: 00 00 00 00  returns 0x00 (0000ms, 0842ms total)
TF0EE0 011:009 JLINK_ReadMemU32(0xE0001004, 0x0001 Items, ...) - Data: CC B0 03 0A  returns 0x01 (0000ms, 0842ms total)
TF0EE0 011:009 JLINK_ReadMem (0x20001610, 0x0004 Bytes, ...) -- Read from C cache (4 bytes @ 0x20001610) - Data: 00 00 00 00  returns 0x00 (0000ms, 0842ms total)
TF0EE0 011:009 JLINK_ReadMem (0x20000078, 0x0002 Bytes, ...) -- Read from C cache (2 bytes @ 0x20000078) - Data: 00 00  returns 0x00 (0000ms, 0842ms total)
TF0EE0 011:014 JLINK_ReadMem (0x0800450E, 0x0002 Bytes, ...) -- Read from C cache (2 bytes @ 0x0800450E) - Data: 13 48  returns 0x00 (0000ms, 0842ms total)
TF0EE0 011:014 JLINK_ReadMem (0x08004510, 0x003C Bytes, ...) -- Read from C cache (60 bytes @ 0x08004510) - Data: 13 49 48 60 02 20 88 60 7F 20 08 80 00 20 88 70 ...  returns 0x00 (0000ms, 0842ms total)
T17114 011:255 JLINK_Step() -- Read from C cache (2 bytes @ 0x08004514) -- Simulated  returns 0x00 (0001ms, 0843ms total)
T17114 011:256 JLINK_ReadReg(R15 (PC))  returns 0x08004516 (0000ms, 0843ms total)
T17114 011:256 JLINK_ReadReg(XPSR)  returns 0x21000000 (0000ms, 0843ms total)
T17114 011:256 JLINK_Step() -- Read from C cache (2 bytes @ 0x08004516) -- CPU_WriteMem(4 bytes @ 0x200016CC) -- Simulated  returns 0x00 (0001ms, 0844ms total)
T17114 011:257 JLINK_ReadReg(R15 (PC))  returns 0x08004518 (0000ms, 0844ms total)
T17114 011:257 JLINK_ReadReg(XPSR)  returns 0x21000000 (0000ms, 0844ms total)
T17114 011:257 JLINK_ReadReg(R0)  returns 0x00000002 (0000ms, 0844ms total)
T17114 011:257 JLINK_ReadReg(R1)  returns 0x200016C4 (0000ms, 0844ms total)
T17114 011:257 JLINK_ReadReg(R2)  returns 0x080031AF (0000ms, 0844ms total)
T17114 011:257 JLINK_ReadReg(R3)  returns 0x080031D1 (0000ms, 0844ms total)
T17114 011:257 JLINK_ReadReg(R4)  returns 0x00000000 (0000ms, 0844ms total)
T17114 011:257 JLINK_ReadReg(R5)  returns 0x20001908 (0000ms, 0844ms total)
T17114 011:257 JLINK_ReadReg(R6)  returns 0x00000000 (0000ms, 0844ms total)
T17114 011:257 JLINK_ReadReg(R7)  returns 0x00000000 (0001ms, 0845ms total)
T17114 011:258 JLINK_ReadReg(R8)  returns 0x00000000 (0000ms, 0845ms total)
T17114 011:258 JLINK_ReadReg(R9)  returns 0x20000160 (0000ms, 0845ms total)
T17114 011:258 JLINK_ReadReg(R10)  returns 0x08005F5C (0000ms, 0845ms total)
T17114 011:258 JLINK_ReadReg(R11)  returns 0x00000000 (0000ms, 0845ms total)
T17114 011:258 JLINK_ReadReg(R12)  returns 0x00000001 (0000ms, 0845ms total)
T17114 011:258 JLINK_ReadReg(R13 (SP))  returns 0x20003160 (0000ms, 0845ms total)
T17114 011:258 JLINK_ReadReg(R14)  returns 0x080042ED (0000ms, 0845ms total)
T17114 011:258 JLINK_ReadReg(R15 (PC))  returns 0x08004518 (0000ms, 0845ms total)
T17114 011:258 JLINK_ReadReg(XPSR)  returns 0x21000000 (0000ms, 0845ms total)
T17114 011:258 JLINK_ReadReg(MSP)  returns 0x20003160 (0000ms, 0845ms total)
T17114 011:258 JLINK_ReadReg(PSP)  returns 0x20001000 (0000ms, 0845ms total)
T17114 011:258 JLINK_ReadReg(CFBP)  returns 0x00000000 (0000ms, 0845ms total)
TF0EE0 011:259 JLINK_ReadMem (0x20003164, 0x0004 Bytes, ...) -- Read from C cache (4 bytes @ 0x20003164) - Data: ED 42 00 08  returns 0x00 (0000ms, 0845ms total)
TF0EE0 011:259 JLINK_ReadMem (0x20003160, 0x0004 Bytes, ...) -- Read from C cache (4 bytes @ 0x20003160) - Data: 00 00 00 00  returns 0x00 (0000ms, 0845ms total)
TF0EE0 011:259 JLINK_ReadMemU32(0xE0001004, 0x0001 Items, ...) - Data: CC B0 03 0A  returns 0x01 (0000ms, 0845ms total)
TF0EE0 011:259 JLINK_ReadMem (0x20001610, 0x0004 Bytes, ...) -- Read from C cache (4 bytes @ 0x20001610) - Data: 00 00 00 00  returns 0x00 (0000ms, 0845ms total)
TF0EE0 011:259 JLINK_ReadMem (0x20000078, 0x0002 Bytes, ...) -- Read from C cache (2 bytes @ 0x20000078) - Data: 00 00  returns 0x00 (0000ms, 0845ms total)
TF0EE0 011:272 JLINK_ReadMem (0x08004512, 0x0002 Bytes, ...) -- Read from C cache (2 bytes @ 0x08004512) - Data: 48 60  returns 0x00 (0000ms, 0845ms total)
